#Digilent WaveForms Network Analyzer - Bode
#Device Name: FYSE301_1
#Serial Number: SN:210321A1AD23
#Date Time: 2023-10-03 08:59:00.086
#Start: 5 Hz
#Stop: 1e+06 Hz
#Steps: 501
#Wavegen: Wavegen1
#Amplification: 1 X
#Settle: 10 ms
#MinPeriods: 16 
#Channel: Channel 1
#Range: 5.45574 V
#Offset: 0.000284467 V
#Relative: no
#Channel: Channel 2
#Range: 5.50406 V
#Offset: 0.000217557 V
#Relative: yes

Frequency (Hz),Channel 1 Magnitude (dB),Channel 2 Magnitude (dB),Channel 2 Phase (*)
5,0.013307739146278,-29.766839290584,88.11323001399211
5.123562806643319,0.01303639572601691,-29.55750496143045,88.06232094861092
5.250179166723755,0.01324244578020763,-29.34667854677794,88.03973250169746
5.37992454136789,0.01325485344910567,-29.13863429330658,87.95368698725491
5.512876256540029,0.0130065664205045,-28.92543245807721,87.91191413543982
5.649113549127111,0.01305820172682393,-28.71484388503973,87.86808822234059
5.788717614162501,0.01302322154284925,-28.50480299372608,87.84077737508321
5.931771653216822,0.01301928454038387,-28.2934534990809,87.75910890018335
6.078360923984574,0.01316428217916596,-28.08114514031245,87.69564906239439
6.228572791096298,0.01322989575887171,-27.86911564660666,87.65404303601308
6.382496778186313,0.01322632008107488,-27.66002118937918,87.59962603698985
6.540224621247244,0.01315190786667792,-27.44582832350378,87.53234314808753
6.701850323303056,0.01286629876114164,-27.23313495550212,87.48718612462045
6.867470210433209,0.01275581157809569,-27.02226927250937,87.41628727494719
7.037182989181313,0.01296632080209407,-26.80782463787538,87.34462252166523
7.211089805382488,0.01309321494355677,-26.59471887887821,87.28707394883355
7.389294304444507,0.01316952615056918,-26.38321456768486,87.23347223752032
7.57190269311864,0.01317888017207414,-26.17414681933141,87.16516147448289
7.759023802797012,0.01324892025607906,-25.96282031143192,87.08905441689757
7.950769154374196,0.01321852777555651,-25.75207969719776,87.01200626649998
8.14725302471172,0.01295758007062164,-25.54000205406501,86.93075588165539
8.34859251474507,0.01312320156559088,-25.33151313038852,86.85645130741202
8.554907619273733,0.01295103880049816,-25.12250510226321,86.78603088972324
8.76632129847609,0.01290223818505853,-24.90977845113889,86.69931824508959
8.982959551191454,0.01307750623461419,-24.70328189684489,86.61916920844655
9.204951490013181,0.01304435676426047,-24.49072604214919,86.53579955356957
9.432429418237511,0.01306295404124409,-24.28111021427518,86.47103412338362
9.665528908714,0.01304524024346976,-24.07076675305472,86.3646287548882
9.904388884644572,0.01305454679684881,-23.85675777787506,86.27429814597176
10.14915170237929,0.01303720458419095,-23.64814495255919,86.19349148101259
10.39996323625825,0.01337932640649508,-23.43433564688603,86.1125574735762
10.65697296555014,0.01308573076415763,-23.2222161990148,86.00283776432741
10.92033406353921,0.01309414036419602,-23.01153075375561,85.90109045932751
11.19020348881392,0.01336596550126425,-22.79982092459009,85.80335450966346
11.46674207881149,0.0134716128989877,-22.5899895061636,85.70240464473372
11.75011464567409,0.0131865348905836,-22.38068924512982,85.59756836251472
12.04049007447412,0.01334292303031715,-22.16980631014746,85.49741347940173
12.33804142386673,0.01355934578425591,-21.96086305596549,85.37829186954764
12.64294602922964,0.0132970324874076,-21.75126033906228,85.26372520066597
12.95538560835197,0.0134144284820411,-21.53975724102344,85.15733367486121
13.27554636973485,0.01347618086994068,-21.32801728934591,85.02086975693764
13.60361912356845,0.01340011806031421,-21.11836198948561,84.9171521661611
13.93979939545142,0.0133672187212053,-20.90653439401086,84.78691697011044
14.28428754292082,0.01340149127526487,-20.69575180353458,84.65700621619919
14.63728887486152,0.01308172254925577,-20.48733357738749,84.53053783125235
14.99901377386691,0.01321213276820776,-20.27610834136471,84.40459257556643
15.36967782162307,0.01333397876852014,-20.06812497054793,84.25869406495146
15.74950192739174,0.01329021156726141,-19.8596274897583,84.12135934474517
16.13871245966833,0.01312152979057828,-19.64931961006983,83.97937669732909
16.53754138109355,0.01327225619862199,-19.44079325095897,83.83524540499457
16.94622638669915,0.01322013966309767,-19.22965541081314,83.68204604410845
17.36501104556988,0.01330958801112242,-19.01997524336274,83.52779850737731
17.79414494600645,0.01328802187730519,-18.81024402673419,83.373896579811
18.23388384427577,0.01317458044161849,-18.5990451952382,83.20730492700272
18.68448981703717,0.01326930841272549,-18.39166452186792,83.0438478616411
19.1462314175355,0.0131813642984972,-18.18254519021712,82.87558342126904
19.61938383565419,0.01338105285109856,-17.97693331657153,82.70469243288983
20.10422906192339,0.01333724554146385,-17.76800929951619,82.52262997976956
20.60105605558168,0.01335754543253671,-17.55965715018365,82.34480672076734
21.11016091679049,0.01327615517252253,-17.35075902876361,82.16119569083337
21.63184706310465,0.01327757377283501,-17.14273584013446,81.96328753896319
22.1664254103039,0.01355029350336112,-16.93450615804874,81.76684144337689
22.71421455769329,0.01333599428296024,-16.72835592305994,81.57708064298157
23.27554097798272,0.01340154707002783,-16.52190103271096,81.36871793591087
23.85073921185895,0.01348814056012803,-16.31469137483134,81.16242163549057
24.44015206736599,0.01341492585876269,-16.10806044781833,80.95213266563557
25.04413082421265,0.01329255339355057,-15.90068801346573,80.73003647510342
25.66303544312909,0.01325025993050671,-15.69545010845328,80.50522981109876
26.2972347803971,0.01346456797316797,-15.49078240190894,80.2762048188374
26.94710680768194,0.0131814156629333,-15.28405986125201,80.03939046694757
27.6130388372969,0.01300587080418051,-15.07825783732842,79.7982690314781
28.29542775303438,0.01309187311795636,-14.87389907822123,79.55472944797393
28.99468024670202,0.01327441680207956,-14.66927017219791,79.29639847851797
29.71121306050366,0.01335680434140168,-14.4658447412724,79.04727268502269
30.44545323541035,0.01335718365047575,-14.26109185333209,78.78304482308143
31.19783836566941,0.0131688013456334,-14.05600275048162,78.50933716796487
31.96881685960276,0.01317144966132015,-13.85298366078353,78.23984938986986
32.75884820685053,0.01314090120607471,-13.65115151131702,77.9591962972886
33.56840325221872,0.01310619709561793,-13.44783833474133,77.66921016505633
34.3979644762945,0.01311052244809811,-13.2452852389541,77.37244972107493
35.24802628299614,0.01322167702919639,-13.04372417394988,77.07041847942764
36.11909529422904,0.01315831334907489,-12.84401296915047,76.76279013184801
37.01169065182354,0.01311356947662862,-12.64333469060723,76.45443404325209
37.92634432693435,0.01312120839809619,-12.44280571924149,76.13498459727839
38.86360143708574,0.0130768473794743,-12.24338836839647,75.80490809509591
39.82402057105248,0.01293248898787483,-12.04434640466179,75.46810320147685
40.80817412176851,0.01343788655713067,-11.84674256797852,75.12697674630235
41.81664862746351,0.01304882105748222,-11.64877888358754,74.77948324869905
42.85004512122891,0.01302646320645425,-11.45206854135311,74.41794345702979
43.9089794892233,0.01309615046574013,-11.25613873818419,74.05761174777817
44.99408283772978,0.01325320232696992,-11.06008644485247,73.6849098501917
46.10600186928417,0.01294119845436367,-10.864912305885,73.30542088811313
47.24539926809845,0.01288387764605825,-10.67077659111449,72.92241308565062
48.41295409500855,0.01269765463718241,-10.47788100976031,72.521696578248
49.60936219218326,0.01291954667221667,-10.28590864558429,72.12099697593379
50.83533659783349,0.01295505158163961,-10.09472693301881,71.70587421100265
52.09160797117074,0.01297484422152043,-9.904279434780282,71.28665164413459
53.37892502786702,0.01301738927720908,-9.714801974683702,70.86007232119692
54.69805498627634,0.01277228876847036,-9.526016331108515,70.42292372790718
56.04978402468333,0.0129403914030437,-9.338322640006105,69.97990249829616
57.4349177498517,0.01312980165506888,-9.152467765786579,69.52287752701818
58.85428167715168,0.01295348735500506,-8.966506511370314,69.06523426454802
60.30872172255277,0.01271385174315595,-8.782547969849775,68.59559781798274
61.79910470677468,0.01276205939564292,-8.59926137270728,68.11691617125931
63.32631887189739,0.01280662056104381,-8.417440650033258,67.6288408897268
64.89127441073782,0.01294269514135492,-8.236552913902198,67.13148172093621
66.49490400930834,0.01301746051295625,-8.057438780669543,66.62916921472014
68.13816340268201,0.0130439821107632,-7.879694920970747,66.11815139863836
69.82203194459333,0.01301031133961678,-7.702894061352717,65.59806474539891
71.54751319111602,0.01311471944155378,-7.528117685283044,65.06798535337849
73.31563549876489,0.01308616150051208,-7.354605101786225,64.52745415636775
75.1274526373781,0.01280455143065009,-7.182964600436835,63.98698055900148
76.9840444181456,0.01298968316927867,-7.01272290500572,63.43020734487207
78.88651733715763,0.01286186346471674,-6.843848352441536,62.86963946742867
80.83600523485686,0.01301289988658435,-6.67713559956332,62.29947443991517
82.83366997178746,0.01312973665114801,-6.512367255508328,61.72229783797464
84.88070212104358,0.01300199849971945,-6.34852663091528,61.13490328237705
86.97832167782994,0.01299835719863342,-6.187014565157102,60.54255082332318
89.12777878655758,0.01286989636701996,-6.027573748565858,59.94196839226517
91.33035448590817,0.01272202440053123,-5.869877372344342,59.33128962417788
93.58736147230982,0.01274451655294497,-5.714186755453702,58.71680094810585
95.90014488228213,0.01248329167175844,-5.560647051534655,58.09562149032142
98.2700830941133,0.01264965320939722,-5.408961161651735,57.46325116187057
100.6985885493495,0.01242543727339523,-5.259297026665619,56.82868779001411
103.1871085945852,0.01256498455004255,-5.111912370638892,56.18582571146813
105.7371263440564,0.01259441591805258,-4.96698946524869,55.5383532536334
108.3501615635506,0.01273373374093913,-4.824766222383118,54.8855350051187
111.0277715761605,0.01289700945829543,-4.683663319180821,54.22198336982811
113.7715521904213,0.01266331727514778,-4.545497824312929,53.55916014532578
116.5831386513845,0.0126200144748841,-4.40993328191172,52.89102362591414
119.464206615195,0.01291007521375545,-4.276523434881837,52.21788346923299
122.4164731477532,0.01264055263912165,-4.145401397751622,51.54020266578405
125.4416977480558,0.01277792046471745,-4.016769854112462,50.85823581766155
128.5416833968264,0.01284719486400718,-3.890929539965821,50.17365221791563
131.7182776310601,0.01267480796514649,-3.766915286527481,49.48518837985347
134.9733736451237,0.01254053128430311,-3.645927328448876,48.79596935124455
138.3089114190657,0.01279233809528444,-3.527273423256343,48.10248683251841
141.7268788748101,0.01235744625944084,-3.411190467265008,47.40911612785226
145.229313060924,0.01241554810162227,-3.297636334730713,46.71087938978238
148.8183013666618,0.01238827427944116,-3.186803261805151,46.01564078821617
152.4959827660131,0.01233777265476036,-3.078441230070432,45.31615664308407
156.2645490924931,0.01277289710955839,-2.972918317588873,44.61863748096054
160.1262463454375,0.01240877248544533,-2.869566166933035,43.92177025992504
164.0833760285779,0.01241172700784386,-2.768984499647503,43.22620142798854
168.1382965216984,0.01238373469818322,-2.670764032730204,42.52804017296094
172.293424486188,0.01238530088272995,-2.575672043089928,41.83520594983941
176.5512363053284,0.01219472394726091,-2.482362039489728,41.14238126781521
180.9142695601753,0.01252602520824844,-2.392153286193123,40.45351367839697
185.3851245419116,0.01214353135282135,-2.304271292655423,39.76521036401778
189.9664658015758,0.01216258175887531,-2.218889394247622,39.0786366429303
194.6610237380868,0.01212942873890933,-2.135932315252056,38.39753159481225
199.4715962255148,0.01200926998075307,-2.055307168724626,37.72320880628689
204.4010502805644,0.0123865197267978,-1.977563920102634,37.04853938971655
209.4523237712662,0.01185218150346427,-1.901510176129205,36.37795975953125
214.6284271678948,0.01237547290435904,-1.828586536742986,35.71639294121231
219.9324453371561,0.0121508095574489,-1.757442450572119,35.05632642380263
225.3675393807139,0.01230981062570452,-1.688678909802955,34.39976033099724
230.9369485191499,0.01226549399609274,-1.622334722890308,33.75393587254896
236.6439920224839,0.01231033898506482,-1.558222068526895,33.11274496199746
242.4920711883994,0.01205633715412546,-1.495866965205397,32.47625905438457
248.4846713693576,0.01218920681913834,-1.435972783117552,31.848227707611
254.6253640498057,0.01197307256232559,-1.377922226166534,31.22551823163467
260.9178089747202,0.01201427586045921,-1.321934231052535,30.61042410526799
267.3657563307486,0.01186974424844237,-1.268052959394944,30.00249247282527
273.9730489812569,0.01214575973398012,-1.216080701069798,29.40146748009595
280.7436247566073,0.01174777942120142,-1.165835067975036,28.81000961735592
287.6815188010364,0.01196474291670913,-1.117459948870572,28.22310628769672
294.7908659775303,0.01197820804368232,-1.071012240406863,27.64604105883136
302.0759033321301,0.01185920595248948,-1.026206357647314,27.07520744035613
309.5409726191372,0.01170772407707658,-0.9831059492836474,26.51486130215808
317.1905228887219,0.01222737535889313,-0.9418585307054352,25.96148767135554
325.0291131384805,0.01208545325526007,-0.9022453032031679,25.41441368099778
333.0614150305161,0.01193031008838784,-0.8638623179978709,24.87859282790622
341.2922156756694,0.01185307946817845,-0.8269316770149021,24.34941279722123
349.7264204865501,0.01205510509506288,-0.7913515993590453,23.83057242961972
358.3690561010781,0.01190367175745838,-0.7574636618625452,23.31800112273908
367.2252733782714,0.0117478527332353,-0.724872282622709,22.81727199965169
376.3003504680674,0.0120657416217053,-0.6938917937814238,22.3209024230732
385.5996959570077,0.01156572017180224,-0.6638300501464202,21.83481745202796
395.1288520916594,0.01127084997905585,-0.6350214444398028,21.35750567480808
404.8934980816992,0.01153609670056915,-0.6073902333785839,20.88775947059092
414.8994534846206,0.0119864789659652,-0.5812103537977716,20.42877759356894
425.1526816740884,0.01191965937758398,-0.5557471253765141,19.9756144661331
435.6592933940054,0.01177294565419529,-0.5316350175218501,19.53024652959148
446.4255504004072,0.01182471021823268,-0.5082931854878237,19.095312292998
457.4578691933603,0.01145714213372189,-0.485852822382478,18.66865168456229
468.7628248410812,0.01200854584965757,-0.4650014590808661,18.25016546243248
480.3471548985643,0.01181873868084609,-0.4442876632935725,17.83835816555742
492.2177634230443,0.01190097524275252,-0.4248859127187087,17.43482790873811
504.3817250886942,0.01177399294284236,-0.4060395936809535,17.04236491560504
516.8462894030058,0.01160813171831695,-0.3881525153072491,16.65363451790863
529.6188850273707,0.01208037072653127,-0.3715874467429708,16.27385685689126
542.7071242044283,0.01187442354025505,-0.3546605692724275,15.90136002249863
556.1188072948331,0.01204433065180486,-0.3395270802538406,15.53721554815154
569.8619274261303,0.0113445499774967,-0.3242981201436287,15.18118238957523
583.9446752565192,0.01173703244869267,-0.3099954474658373,14.83217975566074
598.3754438563427,0.01151137546728598,-0.296165237078569,14.49241027679585
613.1628337102092,0.01217069373117415,-0.2837529169473429,14.15577251336234
628.3156578427307,0.01206970918708492,-0.2707726527863407,13.8285628536286
643.8429470709292,0.01226822065825853,-0.2593620016038986,13.50724261615318
659.7539553864474,0.01157996922566093,-0.2474122234898233,13.19435528167018
676.0581654707636,0.01177209272752178,-0.2367282490671712,12.88768070992047
692.7652943467041,0.0114948516268301,-0.2262848192446029,12.58924794490375
709.8852991696169,0.01122923870131825,-0.216078165634878,12.29469526998861
727.4283831616624,0.01129457999701584,-0.2067814138878175,12.00803781890164
745.4050016927559,0.01091468416171702,-0.1980086833439303,11.725604164556
763.8258685117811,0.01118437000644585,-0.1897210172770081,11.45168084860751
782.7019621317994,0.01108668670696997,-0.1814204816442794,11.18446972458279
802.0445323730471,0.01150411689003338,-0.1730722592263644,10.92116386652092
821.8651070676359,0.01186357801451199,-0.1660665984346098,10.66387062513218
842.1754989299338,0.01096302278138276,-0.158524272546309,10.41268326404139
862.9878125967381,0.01179648417432012,-0.1521266024768732,10.16900502594146
884.3144518414246,0.01129718231244158,-0.1453360340750066,9.925678116252563
906.1681269663799,0.01179410662654884,-0.1391528616498985,9.694224921595364
928.5618623781181,0.01087723800398563,-0.1331288230448659,9.463006741075247
951.5090043495958,0.01152075555870638,-0.1273571044393128,9.240687124039169
975.0232289743612,0.01189611266991799,-0.1222446232341536,9.022882307042401
999.1185503172622,0.01145067713879501,-0.1171749600154645,8.808624550928497
1023.809328766583,0.01134488491967937,-0.1122805597546692,8.600412397032215
1049.110279592586,0.01182503670084375,-0.1073517150417954,8.395383135672205
1075.036481717551,0.01110466597275695,-0.1028534669587635,8.196086029588741
1101.603386702547,0.01141704032739886,-0.09870513262519703,8.002061816749503
1128.826827956298,0.01080686416068519,-0.0943472493854795,7.812081245773754
1156.723030171609,0.01083054157071515,-0.09058393187627639,7.625627899991343
1185.308618995003,0.01171777127902373,-0.08667059144149161,7.444573123496614
1214.600630935312,0.01124614231217919,-0.08352107704631662,7.265518401680666
1244.616523517135,0.01075523631792143,-0.07984712525136589,7.094518908259765
1275.374185685222,0.01102428822997687,-0.07657271493836286,6.925142975198099
1306.891948465963,0.01102668002765148,-0.07359058397589782,6.758998316219547
1339.188595892365,0.0113676749033228,-0.07067846576167447,6.596233295059847
1372.283376199003,0.01133899540199456,-0.06777927779021839,6.440902619459791
1406.196013293626,0.01085579158802841,-0.06524887372346738,6.287982549018913
1440.946718512268,0.01167636126725491,-0.06249481401671321,6.136290015383622
1476.55620266484,0.01083654893269772,-0.06011720929382493,5.988168175623173
1513.045688378416,0.01212010243979136,-0.05765910558612818,5.84652609777207
1550.436922745538,0.01061943938035206,-0.05576772858594346,5.707348618253761
1588.752190285112,0.01085008047882693,-0.05359960368689905,5.571410937729468
1628.014326223583,0.0108742171005839,-0.05156449715640286,5.43636203691949
1668.246730104327,0.0117392360374141,-0.04977758438409612,5.306325061826669
1709.473379733373,0.01115613187942338,-0.04848756347356514,5.177514334073777
1751.718845469755,0.01070407127660978,-0.04626087855598857,5.057523870898414
1795.008304869003,0.01099067828572989,-0.04452889074917103,4.935062610648821
1839.367557688539,0.01199590493812155,-0.04325128575063314,4.814356742968023
1884.823041263872,0.01074251594170685,-0.04134726003719912,4.700248445499852
1931.401846264785,0.01167874209483813,-0.0405122746297099,4.588212960010249
1979.131732840898,0.01191161419623136,-0.03895167588937769,4.47650423153047
2028.041147166234,0.01156095077287835,-0.03725773435122084,4.369274037290751
2078.159238392636,0.01031600452777644,-0.03590779329348123,4.26378106681419
2129.515876022144,0.01153416582988158,-0.03520002084072388,4.163149553904674
2182.141667708705,0.01112186293480205,-0.03373958308173223,4.061234796467252
2236.067977499789,0.01205890814264162,-0.03294634687525062,3.966994622270207
2291.326944528815,0.01146150904203601,-0.03157592287200187,3.868575296815024
2347.951502169504,0.01126634768942276,-0.03068459949417965,3.775277339151284
2405.975397663596,0.01101254796024646,-0.02968224289872574,3.685859567917191
2465.433212233618,0.01129808743992264,-0.02888178891471148,3.596495388636789
2526.360381692666,0.01162489252755269,-0.02835151981797968,3.508779136528076
2588.793217563553,0.01181304400774966,-0.02743721212726645,3.425358482996167
2652.768928719822,0.0119652792101619,-0.02688370850146199,3.342656800296766
2718.325643561585,0.01063647446393783,-0.02574081337478482,3.262228272705244
2785.502432739381,0.01233302413227895,-0.02528698354488324,3.184141716957811
