#Digilent WaveForms Network Analyzer - Bode
#Device Name: FYSE301_1
#Serial Number: SN:210321A1AD23
#Date Time: 2023-10-03 09:18:53.812
#Start: 5 Hz
#Stop: 1e+06 Hz
#Steps: 501
#Wavegen: Wavegen1
#Amplification: 1 X
#Settle: 10 ms
#MinPeriods: 16 
#Channel: Channel 1
#Range: 5.45574 V
#Offset: 0.000284467 V
#Relative: no
#Channel: Channel 2
#Range: 5.50406 V
#Offset: 0.000217557 V
#Relative: yes

Frequency (Hz),Channel 1 Magnitude (dB),Channel 2 Magnitude (dB),Channel 2 Phase (*)
5,0.01380238819649518,-0.0206265142523338,-1.855759767423152
5.123562806643319,0.01367654964900234,-0.02073114101439873,-1.90261719653012
5.250179166723755,0.0137700340108646,-0.02119016467189199,-1.949809118041888
5.37992454136789,0.01378707320453054,-0.02140979583205592,-1.99878132153404
5.512876256540029,0.01343901281291512,-0.02159429873706506,-2.048370371233034
5.649113549127111,0.01369672121036919,-0.02193024046243059,-2.097246613599964
5.788717614162501,0.01385379256582745,-0.02239589522890204,-2.150755036964426
5.931771653216822,0.01386163621999965,-0.02260276560796836,-2.202379174405408
6.078360923984574,0.01372894718102303,-0.02313664954010959,-2.256463412242383
6.228572791096298,0.01374627061732225,-0.02341220513628054,-2.312818894966689
6.382496778186313,0.01391228573786863,-0.02397959795666079,-2.369624540937195
6.540224621247244,0.01370651065711785,-0.02413243741046874,-2.429000181623167
6.701850323303056,0.01370666177451419,-0.02454709822449999,-2.488356632000887
6.867470210433209,0.0137881118391526,-0.02490705132681243,-2.54895155465519
7.037182989181313,0.01376733466732276,-0.02537838099683198,-2.613010466704026
7.211089805382488,0.01368477369718509,-0.02580061031107085,-2.67625563107981
7.389294304444507,0.01380841742731923,-0.02651593092974653,-2.741789354180135
7.57190269311864,0.01369875575228484,-0.02671924566323833,-2.81113098740002
7.759023802797012,0.01369859202610672,-0.02742290094251644,-2.879504413519214
7.950769154374196,0.01383814565225591,-0.02802755669670784,-2.950032803734004
8.14725302471172,0.01386620982717791,-0.02872105145683798,-3.023070232651941
8.34859251474507,0.01370175712321314,-0.02912438231221576,-3.098581508065436
8.554907619273733,0.0138885268274396,-0.02976757894817753,-3.175098287089327
8.76632129847609,0.01376864418573323,-0.03030128168830283,-3.252156239953933
8.982959551191454,0.01386691144803436,-0.03127411136838962,-3.33363890916921
9.204951490013181,0.0139399873853545,-0.0320347968624537,-3.416530388407205
9.432429418237511,0.01415934976988072,-0.0328468586102293,-3.499463330892695
9.665528908714,0.01377339927291901,-0.03354656981576552,-3.584854601697799
9.904388884644572,0.01391234022528256,-0.03456688525082287,-3.674217391256121
10.14915170237929,0.01383958355777291,-0.03523078099719897,-3.763445857225904
10.39996323625825,0.01387086881486142,-0.03629912597036801,-3.856323741458205
10.65697296555014,0.01399957006509844,-0.03761430702197551,-3.951921903435675
10.92033406353921,0.01397073097020738,-0.03838547932972564,-4.049610257082875
11.19020348881392,0.01398028541864019,-0.03951487423796362,-4.150167342221481
11.46674207881149,0.01395511834124185,-0.04061017694221054,-4.250862741682326
11.75011464567409,0.0139803957739679,-0.04189089219048419,-4.355796135887772
12.04049007447412,0.01408221141887885,-0.04306598699173142,-4.463239924850228
12.33804142386673,0.01401083548653459,-0.04438668322229335,-4.573880035958375
12.64294602922964,0.01387817408185943,-0.04576843390568034,-4.685743492740258
12.95538560835197,0.01382838362094776,-0.04719612899841692,-4.799404956742464
13.27554636973485,0.01409026759680153,-0.04877334344682352,-4.918681728761452
13.60361912356845,0.01411658856053441,-0.05051093148102805,-5.040317081554889
13.93979939545142,0.01393801427160968,-0.05200546614416186,-5.163564591989029
14.28428754292082,0.01390209768469079,-0.05388672132294363,-5.29096291002055
14.63728887486152,0.01405456369467287,-0.0558137531181492,-5.419894222996263
14.99901377386691,0.01384105431492534,-0.05771980317730797,-5.552121682170849
15.36967782162307,0.01386982459116185,-0.05962840217405382,-5.687783856266985
15.74950192739174,0.01375791657277591,-0.06179610634333571,-5.828419369050224
16.13871245966833,0.01380797969809824,-0.0640888408558863,-5.972245891944539
16.53754138109355,0.01405449385219787,-0.06658136508882638,-6.117678458152608
16.94622638669915,0.01391277203008631,-0.06893330696445558,-6.266615149813546
17.36501104556988,0.01404897338514487,-0.07154838550284497,-6.421277632266111
17.79414494600645,0.0139301633113285,-0.07436559464607204,-6.577540413205568
18.23388384427577,0.01385256347174074,-0.07702148414985734,-6.740585167305539
18.68448981703717,0.01401351102204598,-0.08010683059820561,-6.905612172308143
19.1462314175355,0.01403218749348399,-0.08348254688010695,-7.073701327037043
19.61938383565419,0.01386068744466463,-0.08674935968436057,-7.24583436455471
20.10422906192339,0.01387634126795027,-0.09007736270976544,-7.421958334974533
20.60105605558168,0.01395099531736648,-0.0938595274454946,-7.604096934634313
21.11016091679049,0.01390347686747573,-0.09779957576100864,-7.789754604539084
21.63184706310465,0.01378336670536109,-0.1016394130814438,-7.979194711723991
22.1664254103039,0.01367259104407753,-0.1058120708171917,-8.174949343791383
22.71421455769329,0.01387046520475896,-0.1101325885979075,-8.373506440514745
23.27554097798272,0.01394929623950203,-0.1150180500698175,-8.576615588906378
23.85073921185895,0.01408106204947145,-0.120047531589284,-8.786232250472636
24.44015206736599,0.0139331253755436,-0.1250671412686965,-8.998083739784136
25.04413082421265,0.01373618087282596,-0.1302836094910535,-9.217989756553095
25.66303544312909,0.01389477327192797,-0.1360140427676915,-9.440852638522188
26.2972347803971,0.0137953440899269,-0.1417674742794206,-9.669622761432784
26.94710680768194,0.0139635377155583,-0.1478870044015546,-9.904283933292135
27.6130388372969,0.01385496407418645,-0.1541646736719103,-10.1451841572995
28.29542775303438,0.01387184709273619,-0.1611125889909874,-10.38823618736138
28.99468024670202,0.01414230773262473,-0.1683548406964402,-10.63939783800106
29.71121306050366,0.01400062424038876,-0.1757535590436962,-10.89798716539596
30.44545323541035,0.01407445484404212,-0.183602120094841,-11.15763676310248
31.19783836566941,0.01361515650344727,-0.1917463043508847,-11.42642679685191
31.96881685960276,0.01378931270291978,-0.2003100170783688,-11.70076919573174
32.75884820685053,0.01390267250452658,-0.209475412366791,-11.98060848169236
33.56840325221872,0.01389162418365858,-0.2189490682875688,-12.2680426399451
34.3979644762945,0.01408846235668459,-0.2287025134166297,-12.56173753903754
35.24802628299614,0.01398877048609142,-0.2388853861554753,-12.86097354632685
36.11909529422904,0.01379973978547473,-0.2493547359311589,-13.16800575842363
37.01169065182354,0.01400512777503878,-0.2611191285207577,-13.48186830364398
37.92634432693435,0.01382389891081751,-0.272749838162513,-13.80147182388826
38.86360143708574,0.01394336095615463,-0.2852857771360056,-14.12849440696421
39.82402057105248,0.0140288783727219,-0.2984021527713815,-14.46398544740344
40.80817412176851,0.01387648115102588,-0.31197406357976,-14.80366612791279
41.81664862746351,0.01393648699507983,-0.3260854402771258,-15.15470288716301
42.85004512122891,0.01372517956387858,-0.3409610168985984,-15.50983695091628
43.9089794892233,0.0138978966115948,-0.3564277352246629,-15.87381559147947
44.99408283772978,0.01403098257517487,-0.3725340215284653,-16.24582387908887
46.10600186928417,0.01406174545570234,-0.3899906270851144,-16.62444416884837
47.24539926809845,0.01379697486765954,-0.4076223251465486,-17.01148416633995
48.41295409500855,0.01386046022222145,-0.4263827128132536,-17.4075940171053
49.60936219218326,0.01377734834362731,-0.4457228658478321,-17.81065222984962
50.83533659783349,0.01364250774895716,-0.465728132911598,-18.22126779630964
52.09160797117074,0.01368313935052968,-0.4871438232345215,-18.63818230919571
53.37892502786702,0.0139021621043152,-0.5095136332838648,-19.06556196907547
54.69805498627634,0.01374783417321275,-0.5326877878594859,-19.50025688164123
56.04978402468333,0.01398219293915287,-0.5568740315193107,-19.94545394877077
57.4349177498517,0.01371731281231019,-0.5819386985665991,-20.39642961629943
58.85428167715168,0.01374144042987878,-0.6083305908640575,-20.85730961230661
60.30872172255277,0.01362674522194189,-0.6358832999672169,-21.32726534107787
61.79910470677468,0.014373431949957,-0.6649426587411669,-21.80359312800159
63.32631887189739,0.01399407647728727,-0.6944927456616217,-22.2904171467911
64.89127441073782,0.01381480130298218,-0.725992017906525,-22.78577756395742
66.49490400930834,0.01345155917216068,-0.7581369208423084,-23.28812279135519
68.13816340268201,0.01382447713540539,-0.7921440658343205,-23.79936781941691
69.82203194459333,0.0137023514330403,-0.8274614495953225,-24.31898763486619
71.54751319111602,0.01359484158938415,-0.8640744562754378,-24.84680324981576
73.31563549876489,0.01354222334738715,-0.9025036479557896,-25.38396387535991
75.1274526373781,0.01371988369572643,-0.9422957134739247,-25.92812880451151
76.9840444181456,0.0133415378703676,-0.9836931819045371,-26.48260106882189
78.88651733715763,0.01311256283292575,-1.026555143279163,-27.04359287052327
80.83600523485686,0.01325262505279684,-1.071369924938095,-27.61306849927669
82.83366997178746,0.01322325817538527,-1.117883444700859,-28.18955528372754
84.88070212104358,0.01337060777511527,-1.166277678371702,-28.77419588505321
86.97832167782994,0.01358664410615773,-1.216577839717379,-29.36713536657027
89.12777878655758,0.01337524323901876,-1.268449670513287,-29.96786063432455
91.33035448590817,0.01342685856217811,-1.322273604696791,-30.57480315651021
93.58736147230982,0.01319431454398278,-1.37833510519028,-31.19090452549938
95.90014488228213,0.01324937335697116,-1.436345540263789,-31.81206495214917
98.2700830941133,0.01317605118980304,-1.496136958796237,-32.44092343609748
100.6985885493495,0.01329995722258873,-1.558464317672269,-33.07471031422794
103.1871085945852,0.01306395334561134,-1.622493625912087,-33.7168042853675
105.7371263440564,0.01288030604891458,-1.688928476715641,-34.36370362930787
108.3501615635506,0.01287842436901729,-1.75765749959402,-35.01685986568653
111.0277715761605,0.01302944280653622,-1.828680446015507,-35.6741530571161
113.7715521904213,0.01248799568481528,-1.901721047604714,-36.3397964409791
116.5831386513845,0.01280765522962991,-1.977708915141281,-37.0058890979891
119.464206615195,0.01279627419570409,-2.055711189782349,-37.67976203837124
122.4164731477532,0.01272602949722288,-2.136258505617066,-38.35469886596005
125.4416977480558,0.01277953939336973,-2.219071449744206,-39.03470984200618
128.5416833968264,0.01271578146973791,-2.30459071339784,-39.7205441183213
131.7182776310601,0.01272013105734471,-2.392246895084821,-40.40710248929883
134.9733736451237,0.01261669867506128,-2.482760516581329,-41.09762559867372
138.3089114190657,0.01284912112330651,-2.575727346986949,-41.78799268732672
141.7268788748101,0.01256675499993905,-2.671426063751571,-42.48273908289234
145.229313060924,0.01271900156281825,-2.769293172017628,-43.17680551279494
148.8183013666618,0.01257186190716428,-2.869883001684377,-43.86950228223952
152.4959827660131,0.01237255017508827,-2.973065172387362,-44.56827528368337
156.2645490924931,0.01250386365687227,-3.079047667057763,-45.26569695964555
160.1262463454375,0.01243612965702763,-3.187264037673877,-45.96018054540721
164.0833760285779,0.01243898526629505,-3.298094640382504,-46.65720145703138
168.1382965216984,0.01225333920185835,-3.411456043318082,-47.35225800207967
172.293424486188,0.01197096201350287,-3.527421201580964,-48.04613749065604
176.5512363053284,0.01249496055077422,-3.646184211465384,-48.73744469635206
180.9142695601753,0.01208917786023757,-3.767000709240182,-49.42423215068404
185.3851245419116,0.01248486099742488,-3.890774780197077,-50.11151359357054
189.9664658015758,0.01234291043374813,-4.016866333812657,-50.79404428302432
194.6610237380868,0.01232109798245769,-4.14571126112234,-51.47415857363133
199.4715962255148,0.01204156139461096,-4.276522174307579,-52.15048923687405
204.4010502805644,0.01224762501349922,-4.410198485459564,-52.82274798180936
209.4523237712662,0.01220395004395767,-4.545399905883563,-53.49043087458922
214.6284271678948,0.01185857499024242,-4.683993799394848,-54.15371917748026
219.9324453371561,0.01246721482722547,-4.824344881357879,-54.8107255361296
225.3675393807139,0.01238739864132238,-4.967417465318701,-55.46193243079276
230.9369485191499,0.0118980476183375,-5.112152892274668,-56.11051692405727
236.6439920224839,0.01208967768567138,-5.259420321899118,-56.75153297750234
242.4920711883994,0.01179338747619453,-5.408610659247724,-57.38497274486919
248.4846713693576,0.01163880324345118,-5.560250235223137,-58.0105794450892
254.6253640498057,0.01204376183196279,-5.713774016644021,-58.63166942557814
260.9178089747202,0.01179944936419684,-5.868902790773587,-59.24508151795089
267.3657563307486,0.01194267824729929,-6.026539379417601,-59.85076762456325
273.9730489812569,0.01174069690978411,-6.186212463471708,-60.45234963501779
280.7436247566073,0.01183507241686872,-6.347561583054277,-61.0407250529972
287.6815188010364,0.01197338039944612,-6.51069612237536,-61.62350266968832
294.7908659775303,0.0121519794332125,-6.675879888544434,-62.2015764524001
302.0759033321301,0.01188343605711679,-6.842319487223927,-62.77271983502141
309.5409726191372,0.01186347947105965,-7.010416763882448,-63.33173072885648
317.1905228887219,0.01170465321038228,-7.180380503146652,-63.88346937866982
325.0291131384805,0.01153638738006159,-7.352704907814539,-64.42818375703317
333.0614150305161,0.0116957543580091,-7.525632253309179,-64.96082756844555
341.2922156756694,0.01218554561946448,-7.70082702152136,-65.48710863531774
349.7264204865501,0.01169525613382738,-7.877141120532162,-66.00642580058812
358.3690561010781,0.01159613005300386,-8.054483609142833,-66.51537079541595
367.2252733782714,0.0116324158509493,-8.233919133870701,-67.01641115389546
376.3003504680674,0.01212417351249151,-8.414258546716754,-67.50983409713575
385.5996959570077,0.01188894100989711,-8.595995736034499,-67.99513425018188
395.1288520916594,0.01208195782848539,-8.778953459346203,-68.47326395013525
404.8934980816992,0.01235598370483859,-8.963710081919963,-68.94012437884243
414.8994534846206,0.0116326298252243,-9.147644198441668,-69.39727797099464
425.1526816740884,0.01158394522518952,-9.33479315756861,-69.84853443532825
435.6592933940054,0.01181029850199069,-9.522019417867266,-70.29101019284334
446.4255504004072,0.01177058586112227,-9.709829015119325,-70.72206910254035
457.4578691933603,0.01155967936426474,-9.899284434465292,-71.14665242859576
468.7628248410812,0.01176486871257641,-10.08901343132286,-71.56473589552962
480.3471548985643,0.01091560894954087,-10.27943466738881,-71.97546782316648
492.2177634230443,0.01171897260092277,-10.47248067045442,-72.3756917875465
504.3817250886942,0.01152982346669181,-10.66526162734878,-72.76895063361883
516.8462894030058,0.01114823148174268,-10.85830442954529,-73.15636588951607
529.6188850273707,0.01149306081639632,-11.05246536067195,-73.53197699195363
542.7071242044283,0.01122097954479223,-11.24933840213583,-73.89542021098271
556.1188072948331,0.01130750979069022,-11.44445766905559,-74.2594506089273
569.8619274261303,0.01135047187280345,-11.64105197923256,-74.61664802463733
583.9446752565192,0.01148192174913937,-11.83816031685311,-74.9606271179827
598.3754438563427,0.01132506614035069,-12.03616281034332,-75.30594164878339
613.1628337102092,0.01130090584906754,-12.23434499762245,-75.63889636695163
628.3156578427307,0.01170364483710299,-12.43317854866332,-75.95848221438393
643.8429470709292,0.01150463003490989,-12.63481430354793,-76.27683744817524
659.7539553864474,0.01140566018349843,-12.83326466973702,-76.58405421314443
676.0581654707636,0.01180023439225125,-13.03385528072415,-76.88680602125856
692.7652943467041,0.01127913404252719,-13.23545088914827,-77.19981351425713
709.8852991696169,0.01140246121228111,-13.4369193147848,-77.48180441485997
727.4283831616624,0.01120633669386694,-13.63853158880265,-77.76906832753485
745.4050016927559,0.01165310474072473,-13.84101861361481,-78.04723441999136
763.8258685117811,0.01120978076096367,-14.0458617709056,-78.31961587068834
782.7019621317994,0.01167788804663929,-14.2490145067042,-78.58771107444541
802.0445323730471,0.01193683717348204,-14.45102481003806,-78.84218647410255
821.8651070676359,0.01113804490482744,-14.65314454633948,-79.09737967796697
842.1754989299338,0.01147181131730451,-14.8611245473879,-79.35304827955248
862.9878125967381,0.01132388979637388,-15.06325863840326,-79.58735245621652
884.3144518414246,0.01119357459630486,-15.26965439154473,-79.82872172100099
906.1681269663799,0.01149827190020324,-15.47356550699947,-80.05436238990902
928.5618623781181,0.01065619175170815,-15.68025125993838,-80.28577339071421
951.5090043495958,0.01104345004070885,-15.88535914826088,-80.50914887184335
975.0232289743612,0.01080875561546258,-16.09144026756567,-80.72349822217103
999.1185503172622,0.01120834513740399,-16.29599875991191,-80.93329886403795
1023.809328766583,0.01096145273760422,-16.50408136910594,-81.14571746760139
1049.110279592586,0.010705897183765,-16.71015008660266,-81.34669526884909
1075.036481717551,0.0109498498428935,-16.91568326573968,-81.53797487013549
1101.603386702547,0.01141644420041121,-17.12379174799105,-81.73908287722385
1128.826827956298,0.01156320720673966,-17.33065913001176,-81.91637979032357
1156.723030171609,0.01104037482766329,-17.53825736050988,-82.09345202866766
1185.308618995003,0.01112963309760717,-17.74786817446824,-82.27154366832357
1214.600630935312,0.0113607954552818,-17.95449804846282,-82.44730585368416
1244.616523517135,0.01051962213134986,-18.16009574221088,-82.60748677063518
1275.374185685222,0.01078019757546335,-18.36664540037475,-82.80616817808588
1306.891948465963,0.01104192447821171,-18.57487246228058,-82.94763243177789
1339.188595892365,0.01128076560224321,-18.78413274397926,-83.13102423657151
1372.283376199003,0.01079413364285091,-18.99584431269322,-83.27587507780214
1406.196013293626,0.01111672785791501,-19.20233210694435,-83.39419630113588
1440.946718512268,0.01048961352300097,-19.41620877075724,-83.55655958157104
1476.55620266484,0.01101253555733205,-19.62360482233159,-83.70797868112354
1513.045688378416,0.01203352853755261,-19.82998774709359,-83.84899927896544
1550.436922745538,0.01069074591688633,-20.03907884948457,-83.99242030494175
1588.752190285112,0.01167316638580812,-20.24995270383311,-84.13172746221106
1628.014326223583,0.01127886620413534,-20.45825551915744,-84.2588914276181
1668.246730104327,0.0118790415554233,-20.66796382338549,-84.3640725624459
1709.473379733373,0.01092700060759836,-20.87017678780228,-84.52467346326148
1751.718845469755,0.0125208605168507,-21.08687639108602,-84.63300336748279
1795.008304869003,0.01087727932935455,-21.29409679425548,-84.71129866039655
1839.367557688539,0.01151200799231273,-21.50824171208107,-84.85141002692563
1884.823041263872,0.01118998260745256,-21.71687205001298,-84.94808344648999
1931.401846264785,0.012216646084196,-21.92801524876747,-85.07263969005197
1979.131732840898,0.01123878514318122,-22.13952234160182,-85.19867671484258
2028.041147166234,0.01199105228568238,-22.34719657734758,-85.31991768638045
2078.159238392636,0.01195940750469578,-22.5556746284726,-85.42340459655421
2129.515876022144,0.01172023335020147,-22.76236768663107,-85.50687340338281
2182.141667708705,0.01085027569660452,-22.96910795086324,-85.58586201724003
2236.067977499789,0.01062347374080448,-23.1900883565249,-85.66753762083992
2291.326944528815,0.01158457249567568,-23.3958899793881,-85.77858395105363
2347.951502169504,0.01161552192642215,-23.61169548034417,-85.87822908663306
2405.975397663596,0.01226387725960519,-23.81977155630148,-85.9670581308943
2465.433212233618,0.01239835346544958,-24.03302805574408,-86.03021990467508
2526.360381692666,0.01253190375795774,-24.24088126156739,-86.12640821101115
